
T0AAC 000:478 SEGGER J-Link V5.02f Log File (0002ms, 0346ms total)
T0AAC 000:478 DLL Compiled: Oct  2 2015 20:51:34 (0002ms, 0346ms total)
T0AAC 000:478 Logging started @ 2016-06-04 13:47 (0002ms, 0346ms total)
T0AAC 000:480 JLINK_SetWarnOutHandler(...) (0000ms, 0346ms total)
T0AAC 000:480 JLINK_OpenEx(...)
Firmware: J-Link V9 compiled Jan 21 2016 18:49:33
Hardware: V9.10
S/N: 59106098
Feature(s): GDB, RDI, FlashDL, FlashBP, JFlash  returns O.K. (0332ms, 0678ms total)
T0AAC 000:812 JLINK_SetErrorOutHandler(...) (0000ms, 0678ms total)
T0AAC 000:812 JLINK_ExecCommand("ProjectFile = "F:\eb120_code\eb120_ec11_new\code\bsp\stm32f10x\JLinkSettings.ini"", ...)  returns 0x00 (0003ms, 0681ms total)
T0AAC 000:820 JLINK_ExecCommand("Device = STM32F103RC", ...)Device "STM32F103RC" selected.  returns 0x00 (0006ms, 0687ms total)
T0AAC 000:826 JLINK_ExecCommand("DisableConnectionTimeout", ...)  returns 0x01 (0000ms, 0687ms total)
T0AAC 000:826 JLINK_GetHardwareVersion()  returns 0x16378 (0000ms, 0687ms total)
T0AAC 000:826 JLINK_GetDLLVersion()  returns 50206 (0000ms, 0687ms total)
T0AAC 000:826 JLINK_GetFirmwareString(...) (0000ms, 0687ms total)
T0AAC 000:847 JLINK_GetDLLVersion()  returns 50206 (0000ms, 0688ms total)
T0AAC 000:847 JLINK_GetCompileDateTime() (0000ms, 0688ms total)
T0AAC 000:853 JLINK_GetFirmwareString(...) (0000ms, 0688ms total)
T0AAC 000:859 JLINK_GetHardwareVersion()  returns 0x16378 (0000ms, 0688ms total)
T0AAC 000:877 JLINK_TIF_Select(JLINKARM_TIF_SWD)  returns 0x00 (0017ms, 0705ms total)
T0AAC 000:894 JLINK_SetSpeed(50000) (0002ms, 0707ms total)
T0AAC 000:896 JLINK_GetId() >0x108 TIF>Found SWD-DP with ID 0x1BA01477 >0x0D TIF> >0x28 TIF> >0x0D TIF> >0x28 TIF> >0x0D TIF> >0x21 TIF> >0x0D TIF> >0x28 TIF> >0x0D TIF> >0x28 TIF> >0x0D TIF> >0x28 TIF> >0x0D TIF> >0x21 TIF> >0x0D TIF> >0x21 TIF> >0x0D TIF> >0x28 TIF> >0x0D TIF> >0x21 TIF> >0x0D TIF> >0x21 TIF> >0x0D TIF> >0x28 TIF> >0x0D TIF> >0x28 TIF> >0x0D TIF> >0x28 TIF> >0x0D TIF> >0x21 TIF> >0x0D TIF> >0x21 TIF> >0x0D TIF> >0x28 TIF> >0x0D TIF> >0x21 TIF> >0x0D TIF> >0x21 TIF> >0x108 TIF>
Found SWD-DP with ID 0x1BA01477 >0x0D TIF> >0x21 TIF> >0x0D TIF> >0x28 TIF> >0x0D TIF> >0x28 TIF> >0x0D TIF> >0x21 TIF> >0x0D TIF> >0x28 TIF> >0x0D TIF> >0x21 TIF> >0x0D TIF> >0x21 TIF> >0x0D TIF> >0x21 TIF> >0x0D TIF> >0x21 TIF> >0x0D TIF> >0x28 TIF> >0x0D TIF> >0x28 TIF> >0x0D TIF> >0x21 TIF> >0x0D TIF> >0x28 TIF> >0x0D TIF> >0x28 TIF> >0x0D TIF> >0x28 TIF> >0x0D TIF> >0x21 TIF> >0x0D TIF> >0x21 TIF> >0x0D TIF> >0x28 TIF> >0x0D TIF> >0x21 TIF> >0x0D TIF> >0x21 TIF>Found Cortex-M3 r1p1, Little endian.
 -- CPU_ReadMem(4 bytes @ 0xE000EDF0) -- CPU_WriteMem(4 bytes @ 0xE000EDF0) -- CPU_ReadMem(4 bytes @ 0xE0002000)FPUnit: 6 code (BP) slots and 2 literal slots -- CPU_ReadMem(4 bytes @ 0xE000EDFC) -- CPU_WriteMem(4 bytes @ 0xE000EDFC) -- CPU_ReadMem(4 bytes @ 0xE0001000) -- CPU_WriteMem(4 bytes @ 0xE0001000) -- CPU_ReadMem(4 bytes @ 0xE000ED88) -- CPU_WriteMem(4 bytes @ 0xE000ED88) -- CPU_ReadMem(4 bytes @ 0xE000ED88) -- CPU_WriteMem(4 bytes @ 0xE000ED88)CoreSight components:ROMTbl 0 @ E00FF000
 -- CPU_ReadMem(16 bytes @ 0xE00FF000) -- CPU_ReadMem(16 bytes @ 0xE000EFF0) -- CPU_ReadMem(16 bytes @ 0xE000EFE0)ROMTbl 0 [0]: FFF0F000, CID: B105E00D, PID: 001BB000 SCS -- CPU_ReadMem(16 bytes @ 0xE0001FF0) -- CPU_ReadMem(16 bytes @ 0xE0001FE0)ROMTbl 0 [1]: FFF02000, CID: B105E00D, PID: 001BB002 DWT -- CPU_ReadMem(16 bytes @ 0xE0002FF0) -- CPU_ReadMem(16 bytes @ 0xE0002FE0)ROMTbl 0 [2]: FFF03000, CID: B105E00D, PID: 000BB003 FPB -- CPU_ReadMem(16 bytes @ 0xE0000FF0)
 -- CPU_ReadMem(16 bytes @ 0xE0000FE0)ROMTbl 0 [3]: FFF01000, CID: B105E00D, PID: 001BB001 ITM -- CPU_ReadMem(16 bytes @ 0xE00FF010) -- CPU_ReadMem(16 bytes @ 0xE0040FF0) -- CPU_ReadMem(16 bytes @ 0xE0040FE0)ROMTbl 0 [4]: FFF41000, CID: B105900D, PID: 001BB923 TPIU-Lite -- CPU_ReadMem(16 bytes @ 0xE0041FF0) -- CPU_ReadMem(16 bytes @ 0xE0041FE0)ROMTbl 0 [5]: FFF42000, CID: B105900D, PID: 101BB924 ETM-M3 >0x0D TIF> >0x21 TIF>  returns 0x1BA01477 (0580ms, 1287ms total)
T0AAC 001:476 JLINK_GetDLLVersion()  returns 50206 (0000ms, 1287ms total)
T0AAC 001:476 JLINK_CORE_GetFound()  returns 0x30000FF (0005ms, 1292ms total)
T0AAC 001:481 JLINK_GetDebugInfo(0x100) -- Value=0xE00FF003  returns 0x00 (0000ms, 1292ms total)
T0AAC 001:483 JLINK_GetDebugInfo(0x100) -- Value=0xE00FF003  returns 0x00 (0001ms, 1293ms total)
T0AAC 001:484 JLINK_GetDebugInfo(0x101) -- Value=0xE0041000  returns 0x00 (0000ms, 1293ms total)
T0AAC 001:484 JLINK_GetDebugInfo(0x102) -- Value=0x00000000  returns 0x00 (0000ms, 1293ms total)
T0AAC 001:484 JLINK_GetDebugInfo(0x103) -- Value=0xE0040000  returns 0x00 (0000ms, 1293ms total)
T0AAC 001:484 JLINK_GetDebugInfo(0x104) -- Value=0xE0000000  returns 0x00 (0000ms, 1293ms total)
T0AAC 001:484 JLINK_GetDebugInfo(0x105) -- Value=0xE0001000  returns 0x00 (0000ms, 1293ms total)
T0AAC 001:484 JLINK_GetDebugInfo(0x106) -- Value=0xE0002000  returns 0x00 (0000ms, 1293ms total)
T0AAC 001:484 JLINK_GetDebugInfo(0x107) -- Value=0xE000E000  returns 0x00 (0000ms, 1293ms total)
T0AAC 001:484 JLINK_GetDebugInfo(0x10C) -- Value=0xE000EDF0  returns 0x00 (0000ms, 1293ms total)
T0AAC 001:484 JLINK_ReadMemU32(0xE000ED00, 0x0001 Items, ...) -- CPU is running -- CPU_ReadMem(4 bytes @ 0xE000ED00) - Data: 31 C2 1F 41  returns 0x01 (0005ms, 1298ms total)
T0AAC 001:490 JLINK_SetResetType(JLINKARM_RESET_TYPE_NORMAL)  returns JLINKARM_RESET_TYPE_NORMAL (0000ms, 1298ms total)
T0AAC 001:490 JLINK_Reset() -- CPU is running -- CPU_WriteMem(4 bytes @ 0xE000EDF0) -- CPU is running -- CPU_WriteMem(4 bytes @ 0xE000EDFC) >0x35 TIF> -- CPU is running -- CPU_WriteMem(4 bytes @ 0xE000ED0C) -- CPU is running -- CPU_ReadMem(4 bytes @ 0xE000EDF0) -- CPU is running -- CPU_ReadMem(4 bytes @ 0xE000EDF0) -- CPU is running -- CPU_WriteMem(4 bytes @ 0xE000EDF0) -- CPU is running -- CPU_WriteMem(4 bytes @ 0xE000EDFC) -- CPU is running -- CPU_ReadMem(4 bytes @ 0xE000EDF0)
 -- CPU_WriteMem(4 bytes @ 0xE0002000) -- CPU_ReadMem(4 bytes @ 0xE000EDFC) -- CPU_ReadMem(4 bytes @ 0xE0001000) (0075ms, 1373ms total)
T0AAC 001:565 JLINK_Halt()  returns 0x00 (0000ms, 1373ms total)
T0AAC 001:565 JLINK_IsHalted()  returns TRUE (0001ms, 1374ms total)
T0AAC 001:566 JLINK_ReadMemU32(0xE000EDF0, 0x0001 Items, ...) -- CPU_ReadMem(4 bytes @ 0xE000EDF0) - Data: 03 00 03 00  returns 0x01 (0005ms, 1378ms total)
T0AAC 001:571 JLINK_WriteU32(0xE000EDF0, 0xA05F0003) -- CPU_WriteMem(4 bytes @ 0xE000EDF0)  returns 0x00 (0005ms, 1383ms total)
T0AAC 001:576 JLINK_WriteU32(0xE000EDFC, 0x01000000) -- CPU_WriteMem(4 bytes @ 0xE000EDFC)  returns 0x00 (0005ms, 1388ms total)
T0AAC 001:589 JLINK_GetHWStatus(...)  returns 0x00 (0005ms, 1393ms total)
T0AAC 001:602 JLINK_GetNumBPUnits(Type = 0xFFFFFF00)  returns 0x06 (0001ms, 1394ms total)
T0AAC 001:603 JLINK_GetNumBPUnits(Type = 0xF0)  returns 0x2000 (0000ms, 1394ms total)
T0AAC 001:603 JLINK_GetNumWPUnits()  returns 0x04 (0000ms, 1394ms total)
T0AAC 001:609 JLINK_GetSpeed()  returns 0x2EE0 (0000ms, 1394ms total)
T0AAC 001:613 JLINK_ReadMemU32(0xE000E004, 0x0001 Items, ...) -- CPU_ReadMem(4 bytes @ 0xE000E004) - Data: 01 00 00 00  returns 0x01 (0005ms, 1399ms total)
T0AAC 001:618 JLINK_ReadMemU32(0xE000E004, 0x0001 Items, ...) -- CPU_ReadMem(4 bytes @ 0xE000E004) - Data: 01 00 00 00  returns 0x01 (0005ms, 1404ms total)
T0AAC 001:623 JLINK_WriteMem(0xE0001000, 0x001C Bytes, ...) - Data: 01 00 00 00 00 00 00 00 00 00 00 00 00 00 00 00 ... -- CPU_WriteMem(28 bytes @ 0xE0001000)  returns 0x1C (0005ms, 1409ms total)
T0AAC 001:628 JLINK_ReadMem (0xE0001000, 0x001C Bytes, ...) -- CPU_ReadMem(28 bytes @ 0xE0001000) - Data: 01 00 00 40 00 00 00 00 00 00 00 00 00 00 00 00 ...  returns 0x00 (0005ms, 1414ms total)
T0AAC 001:633 JLINK_Halt()  returns 0x00 (0000ms, 1414ms total)
T0AAC 001:633 JLINK_IsHalted()  returns TRUE (0000ms, 1414ms total)
T0AAC 001:636 JLINK_WriteMem(0x20000000, 0x0164 Bytes, ...) - Data: 00 BE 0A E0 0D 78 2D 06 68 40 08 24 40 00 00 D3 ... -- CPU_WriteMem(356 bytes @ 0x20000000)  returns 0x164 (0006ms, 1420ms total)
T0AAC 001:642 JLINK_WriteReg(R0, 0x08000000)  returns 0x00 (0000ms, 1420ms total)
T0AAC 001:642 JLINK_WriteReg(R1, 0x007A1200)  returns 0x00 (0000ms, 1420ms total)
T0AAC 001:642 JLINK_WriteReg(R2, 0x00000001)  returns 0x00 (0000ms, 1420ms total)
T0AAC 001:642 JLINK_WriteReg(R3, 0x00000000)  returns 0x00 (0000ms, 1420ms total)
T0AAC 001:642 JLINK_WriteReg(R4, 0x00000000)  returns 0x00 (0000ms, 1420ms total)
T0AAC 001:642 JLINK_WriteReg(R5, 0x00000000)  returns 0x00 (0000ms, 1420ms total)
T0AAC 001:642 JLINK_WriteReg(R6, 0x00000000)  returns 0x00 (0001ms, 1421ms total)
T0AAC 001:643 JLINK_WriteReg(R7, 0x00000000)  returns 0x00 (0000ms, 1421ms total)
T0AAC 001:643 JLINK_WriteReg(R8, 0x00000000)  returns 0x00 (0000ms, 1421ms total)
T0AAC 001:643 JLINK_WriteReg(R9, 0x20000160)  returns 0x00 (0000ms, 1421ms total)
T0AAC 001:643 JLINK_WriteReg(R10, 0x00000000)  returns 0x00 (0000ms, 1421ms total)
T0AAC 001:643 JLINK_WriteReg(R11, 0x00000000)  returns 0x00 (0000ms, 1421ms total)
T0AAC 001:643 JLINK_WriteReg(R12, 0x00000000)  returns 0x00 (0000ms, 1421ms total)
T0AAC 001:643 JLINK_WriteReg(R13 (SP), 0x20001000)  returns 0x00 (0000ms, 1421ms total)
T0AAC 001:643 JLINK_WriteReg(R14, 0x20000001)  returns 0x00 (0000ms, 1421ms total)
T0AAC 001:643 JLINK_WriteReg(R15 (PC), 0x20000038)  returns 0x00 (0000ms, 1421ms total)
T0AAC 001:643 JLINK_WriteReg(XPSR, 0x01000000)  returns 0x00 (0000ms, 1421ms total)
T0AAC 001:643 JLINK_WriteReg(MSP, 0x20001000)  returns 0x00 (0000ms, 1421ms total)
T0AAC 001:643 JLINK_WriteReg(PSP, 0x20001000)  returns 0x00 (0001ms, 1422ms total)
T0AAC 001:644 JLINK_WriteReg(CFBP, 0x00000000)  returns 0x00 (0000ms, 1422ms total)
T0AAC 001:644 JLINK_SetBPEx(Addr = 0x20000000, Type = 0xFFFFFFF2) -- CPU_ReadMem(2 bytes @ 0x20000000)  returns 0x00000001 (0005ms, 1427ms total)
T0AAC 001:649 JLINK_Go() -- CPU_WriteMem(2 bytes @ 0x20000000) -- CPU_ReadMem(4 bytes @ 0xE0001000) -- CPU_WriteMem(4 bytes @ 0xE0002008) -- CPU_WriteMem(4 bytes @ 0xE000200C) -- CPU_WriteMem(4 bytes @ 0xE0002010) -- CPU_WriteMem(4 bytes @ 0xE0002014) -- CPU_WriteMem(4 bytes @ 0xE0002018) -- CPU_WriteMem(4 bytes @ 0xE000201C) -- CPU_WriteMem(4 bytes @ 0xE0001004) (0030ms, 1457ms total)
T0AAC 001:679 JLINK_IsHalted() -- CPU_ReadMem(2 bytes @ 0x20000000)  returns TRUE (0015ms, 1472ms total)
T0AAC 001:694 JLINK_ReadReg(R15 (PC))  returns 0x20000000 (0000ms, 1457ms total)
T0AAC 001:694 JLINK_ClrBPEx(BPHandle = 0x00000001)  returns 0x00 (0000ms, 1457ms total)
T0AAC 001:694 JLINK_ReadReg(R0)  returns 0x00000000 (0000ms, 1457ms total)
T0AAC 001:694 JLINK_WriteReg(R0, 0x08000000)  returns 0x00 (0000ms, 1457ms total)
T0AAC 001:694 JLINK_WriteReg(R1, 0x007A1200)  returns 0x00 (0000ms, 1457ms total)
T0AAC 001:694 JLINK_WriteReg(R2, 0x00000001)  returns 0x00 (0000ms, 1457ms total)
T0AAC 001:694 JLINK_WriteReg(R3, 0x00000000)  returns 0x00 (0000ms, 1457ms total)
T0AAC 001:694 JLINK_WriteReg(R4, 0x00000000)  returns 0x00 (0000ms, 1457ms total)
T0AAC 001:694 JLINK_WriteReg(R5, 0x00000000)  returns 0x00 (0000ms, 1457ms total)
T0AAC 001:694 JLINK_WriteReg(R6, 0x00000000)  returns 0x00 (0001ms, 1458ms total)
T0AAC 001:695 JLINK_WriteReg(R7, 0x00000000)  returns 0x00 (0000ms, 1458ms total)
T0AAC 001:695 JLINK_WriteReg(R8, 0x00000000)  returns 0x00 (0000ms, 1458ms total)
T0AAC 001:695 JLINK_WriteReg(R9, 0x20000160)  returns 0x00 (0000ms, 1458ms total)
T0AAC 001:695 JLINK_WriteReg(R10, 0x00000000)  returns 0x00 (0000ms, 1458ms total)
T0AAC 001:695 JLINK_WriteReg(R11, 0x00000000)  returns 0x00 (0000ms, 1458ms total)
T0AAC 001:695 JLINK_WriteReg(R12, 0x00000000)  returns 0x00 (0000ms, 1458ms total)
T0AAC 001:695 JLINK_WriteReg(R13 (SP), 0x20001000)  returns 0x00 (0000ms, 1458ms total)
T0AAC 001:695 JLINK_WriteReg(R14, 0x20000001)  returns 0x00 (0000ms, 1458ms total)
T0AAC 001:695 JLINK_WriteReg(R15 (PC), 0x2000007C)  returns 0x00 (0000ms, 1458ms total)
T0AAC 001:695 JLINK_WriteReg(XPSR, 0x01000000)  returns 0x00 (0000ms, 1458ms total)
T0AAC 001:695 JLINK_WriteReg(MSP, 0x20001000)  returns 0x00 (0001ms, 1459ms total)
T0AAC 001:696 JLINK_WriteReg(PSP, 0x20001000)  returns 0x00 (0000ms, 1459ms total)
T0AAC 001:696 JLINK_WriteReg(CFBP, 0x00000000)  returns 0x00 (0000ms, 1459ms total)
T0AAC 001:696 JLINK_SetBPEx(Addr = 0x20000000, Type = 0xFFFFFFF2)  returns 0x00000002 (0000ms, 1459ms total)
T0AAC 001:696 JLINK_Go() -- CPU_ReadMem(4 bytes @ 0xE0001000) (0015ms, 1474ms total)
T0AAC 001:711 JLINK_IsHalted()  returns FALSE (0005ms, 1479ms total)
T0AAC 001:907 JLINK_IsHalted() -- CPU_ReadMem(2 bytes @ 0x20000000)  returns TRUE (0014ms, 1488ms total)
T0AAC 001:921 JLINK_ReadReg(R15 (PC))  returns 0x20000000 (0000ms, 1474ms total)
T0AAC 001:921 JLINK_ClrBPEx(BPHandle = 0x00000002)  returns 0x00 (0000ms, 1474ms total)
T0AAC 001:921 JLINK_ReadReg(R0)  returns 0x00000000 (0000ms, 1474ms total)
T0AAC 001:973 JLINK_WriteReg(R0, 0x00000001)  returns 0x00 (0000ms, 1474ms total)
T0AAC 001:973 JLINK_WriteReg(R1, 0x007A1200)  returns 0x00 (0000ms, 1474ms total)
T0AAC 001:973 JLINK_WriteReg(R2, 0x00000001)  returns 0x00 (0000ms, 1474ms total)
T0AAC 001:973 JLINK_WriteReg(R3, 0x00000000)  returns 0x00 (0000ms, 1474ms total)
T0AAC 001:973 JLINK_WriteReg(R4, 0x00000000)  returns 0x00 (0000ms, 1474ms total)
T0AAC 001:973 JLINK_WriteReg(R5, 0x00000000)  returns 0x00 (0000ms, 1474ms total)
T0AAC 001:973 JLINK_WriteReg(R6, 0x00000000)  returns 0x00 (0000ms, 1474ms total)
T0AAC 001:973 JLINK_WriteReg(R7, 0x00000000)  returns 0x00 (0000ms, 1474ms total)
T0AAC 001:973 JLINK_WriteReg(R8, 0x00000000)  returns 0x00 (0000ms, 1474ms total)
T0AAC 001:973 JLINK_WriteReg(R9, 0x20000160)  returns 0x00 (0000ms, 1474ms total)
T0AAC 001:973 JLINK_WriteReg(R10, 0x00000000)  returns 0x00 (0000ms, 1474ms total)
T0AAC 001:973 JLINK_WriteReg(R11, 0x00000000)  returns 0x00 (0000ms, 1474ms total)
T0AAC 001:973 JLINK_WriteReg(R12, 0x00000000)  returns 0x00 (0000ms, 1474ms total)
T0AAC 001:973 JLINK_WriteReg(R13 (SP), 0x20001000)  returns 0x00 (0001ms, 1475ms total)
T0AAC 001:974 JLINK_WriteReg(R14, 0x20000001)  returns 0x00 (0000ms, 1475ms total)
T0AAC 001:974 JLINK_WriteReg(R15 (PC), 0x2000006A)  returns 0x00 (0000ms, 1475ms total)
T0AAC 001:974 JLINK_WriteReg(XPSR, 0x01000000)  returns 0x00 (0000ms, 1475ms total)
T0AAC 001:974 JLINK_WriteReg(MSP, 0x20001000)  returns 0x00 (0000ms, 1475ms total)
T0AAC 001:974 JLINK_WriteReg(PSP, 0x20001000)  returns 0x00 (0000ms, 1475ms total)
T0AAC 001:974 JLINK_WriteReg(CFBP, 0x00000000)  returns 0x00 (0000ms, 1475ms total)
T0AAC 001:974 JLINK_SetBPEx(Addr = 0x20000000, Type = 0xFFFFFFF2)  returns 0x00000003 (0000ms, 1475ms total)
T0AAC 001:974 JLINK_Go() -- CPU_ReadMem(4 bytes @ 0xE0001000) (0015ms, 1490ms total)
T0AAC 001:989 JLINK_IsHalted() -- CPU_ReadMem(2 bytes @ 0x20000000)  returns TRUE (0015ms, 1505ms total)
T0AAC 002:004 JLINK_ReadReg(R15 (PC))  returns 0x20000000 (0000ms, 1490ms total)
T0AAC 002:004 JLINK_ClrBPEx(BPHandle = 0x00000003)  returns 0x00 (0001ms, 1491ms total)
T0AAC 002:005 JLINK_ReadReg(R0)  returns 0x00000000 (0000ms, 1491ms total)
T0AAC 002:012 JLINK_WriteMem(0x20000000, 0x0164 Bytes, ...) - Data: 00 BE 0A E0 0D 78 2D 06 68 40 08 24 40 00 00 D3 ... -- CPU_WriteMem(356 bytes @ 0x20000000)  returns 0x164 (0006ms, 1497ms total)
T0AAC 002:018 JLINK_WriteReg(R0, 0x08000000)  returns 0x00 (0000ms, 1497ms total)
T0AAC 002:018 JLINK_WriteReg(R1, 0x007A1200)  returns 0x00 (0000ms, 1497ms total)
T0AAC 002:018 JLINK_WriteReg(R2, 0x00000002)  returns 0x00 (0000ms, 1497ms total)
T0AAC 002:018 JLINK_WriteReg(R3, 0x00000000)  returns 0x00 (0000ms, 1497ms total)
T0AAC 002:018 JLINK_WriteReg(R4, 0x00000000)  returns 0x00 (0000ms, 1497ms total)
T0AAC 002:018 JLINK_WriteReg(R5, 0x00000000)  returns 0x00 (0001ms, 1498ms total)
T0AAC 002:019 JLINK_WriteReg(R6, 0x00000000)  returns 0x00 (0000ms, 1498ms total)
T0AAC 002:019 JLINK_WriteReg(R7, 0x00000000)  returns 0x00 (0000ms, 1498ms total)
T0AAC 002:019 JLINK_WriteReg(R8, 0x00000000)  returns 0x00 (0000ms, 1498ms total)
T0AAC 002:019 JLINK_WriteReg(R9, 0x20000160)  returns 0x00 (0000ms, 1498ms total)
T0AAC 002:019 JLINK_WriteReg(R10, 0x00000000)  returns 0x00 (0000ms, 1498ms total)
T0AAC 002:019 JLINK_WriteReg(R11, 0x00000000)  returns 0x00 (0000ms, 1498ms total)
T0AAC 002:019 JLINK_WriteReg(R12, 0x00000000)  returns 0x00 (0000ms, 1498ms total)
T0AAC 002:019 JLINK_WriteReg(R13 (SP), 0x20001000)  returns 0x00 (0000ms, 1498ms total)
T0AAC 002:019 JLINK_WriteReg(R14, 0x20000001)  returns 0x00 (0000ms, 1498ms total)
T0AAC 002:019 JLINK_WriteReg(R15 (PC), 0x20000038)  returns 0x00 (0000ms, 1498ms total)
T0AAC 002:019 JLINK_WriteReg(XPSR, 0x01000000)  returns 0x00 (0001ms, 1499ms total)
T0AAC 002:020 JLINK_WriteReg(MSP, 0x20001000)  returns 0x00 (0000ms, 1499ms total)
T0AAC 002:020 JLINK_WriteReg(PSP, 0x20001000)  returns 0x00 (0000ms, 1499ms total)
T0AAC 002:020 JLINK_WriteReg(CFBP, 0x00000000)  returns 0x00 (0000ms, 1499ms total)
T0AAC 002:020 JLINK_SetBPEx(Addr = 0x20000000, Type = 0xFFFFFFF2) -- CPU_ReadMem(2 bytes @ 0x20000000)  returns 0x00000004 (0005ms, 1504ms total)
T0AAC 002:025 JLINK_Go() -- CPU_WriteMem(2 bytes @ 0x20000000) -- CPU_ReadMem(4 bytes @ 0xE0001000) (0019ms, 1523ms total)
T0AAC 002:044 JLINK_IsHalted() -- CPU_ReadMem(2 bytes @ 0x20000000)  returns TRUE (0015ms, 1538ms total)
T0AAC 002:059 JLINK_ReadReg(R15 (PC))  returns 0x20000000 (0000ms, 1523ms total)
T0AAC 002:059 JLINK_ClrBPEx(BPHandle = 0x00000004)  returns 0x00 (0000ms, 1523ms total)
T0AAC 002:059 JLINK_ReadReg(R0)  returns 0x00000000 (0001ms, 1524ms total)
T0AAC 002:060 JLINK_WriteMem(0x20000164, 0x0400 Bytes, ...) - Data: A0 31 00 20 45 01 00 08 9D 1E 00 08 0F 02 00 08 ... -- CPU_WriteMem(1024 bytes @ 0x20000164)  returns 0x400 (0007ms, 1531ms total)
T0AAC 002:067 JLINK_WriteReg(R0, 0x08000000)  returns 0x00 (0000ms, 1531ms total)
T0AAC 002:067 JLINK_WriteReg(R1, 0x00000400)  returns 0x00 (0000ms, 1531ms total)
T0AAC 002:067 JLINK_WriteReg(R2, 0x20000164)  returns 0x00 (0000ms, 1531ms total)
T0AAC 002:067 JLINK_WriteReg(R3, 0x00000000)  returns 0x00 (0000ms, 1531ms total)
T0AAC 002:067 JLINK_WriteReg(R4, 0x00000000)  returns 0x00 (0000ms, 1531ms total)
T0AAC 002:067 JLINK_WriteReg(R5, 0x00000000)  returns 0x00 (0000ms, 1531ms total)
T0AAC 002:067 JLINK_WriteReg(R6, 0x00000000)  returns 0x00 (0000ms, 1531ms total)
T0AAC 002:067 JLINK_WriteReg(R7, 0x00000000)  returns 0x00 (0000ms, 1531ms total)
T0AAC 002:067 JLINK_WriteReg(R8, 0x00000000)  returns 0x00 (0000ms, 1531ms total)
T0AAC 002:067 JLINK_WriteReg(R9, 0x20000160)  returns 0x00 (0001ms, 1532ms total)
T0AAC 002:068 JLINK_WriteReg(R10, 0x00000000)  returns 0x00 (0000ms, 1532ms total)
T0AAC 002:068 JLINK_WriteReg(R11, 0x00000000)  returns 0x00 (0000ms, 1532ms total)
T0AAC 002:068 JLINK_WriteReg(R12, 0x00000000)  returns 0x00 (0000ms, 1532ms total)
T0AAC 002:068 JLINK_WriteReg(R13 (SP), 0x20001000)  returns 0x00 (0000ms, 1532ms total)
T0AAC 002:068 JLINK_WriteReg(R14, 0x20000001)  returns 0x00 (0000ms, 1532ms total)
T0AAC 002:068 JLINK_WriteReg(R15 (PC), 0x200000F4)  returns 0x00 (0000ms, 1532ms total)
T0AAC 002:068 JLINK_WriteReg(XPSR, 0x01000000)  returns 0x00 (0000ms, 1532ms total)
T0AAC 002:068 JLINK_WriteReg(MSP, 0x20001000)  returns 0x00 (0000ms, 1532ms total)
T0AAC 002:068 JLINK_WriteReg(PSP, 0x20001000)  returns 0x00 (0001ms, 1533ms total)
T0AAC 002:069 JLINK_WriteReg(CFBP, 0x00000000)  returns 0x00 (0000ms, 1533ms total)
T0AAC 002:069 JLINK_SetBPEx(Addr = 0x20000000, Type = 0xFFFFFFF2)  returns 0x00000005 (0000ms, 1533ms total)
T0AAC 002:069 JLINK_Go() -- CPU_ReadMem(4 bytes @ 0xE0001000) (0014ms, 1547ms total)
T0AAC 002:083 JLINK_IsHalted()  returns FALSE (0005ms, 1552ms total)
T0AAC 002:174 JLINK_IsHalted() -- CPU_ReadMem(2 bytes @ 0x20000000)  returns TRUE (0014ms, 1561ms total)
T0AAC 002:188 JLINK_ReadReg(R15 (PC))  returns 0x20000000 (0001ms, 1548ms total)
T0AAC 002:189 JLINK_ClrBPEx(BPHandle = 0x00000005)  returns 0x00 (0000ms, 1548ms total)
T0AAC 002:189 JLINK_ReadReg(R0)  returns 0x00000000 (0000ms, 1548ms total)
T0AAC 002:189 JLINK_WriteMem(0x20000164, 0x0400 Bytes, ...) - Data: 10 2D 07 D1 00 27 10 25 14 F8 01 0B 02 E0 08 25 ... -- CPU_WriteMem(1024 bytes @ 0x20000164)  returns 0x400 (0007ms, 1555ms total)
T0AAC 002:196 JLINK_WriteReg(R0, 0x08000400)  returns 0x00 (0000ms, 1555ms total)
T0AAC 002:196 JLINK_WriteReg(R1, 0x00000400)  returns 0x00 (0000ms, 1555ms total)
T0AAC 002:196 JLINK_WriteReg(R2, 0x20000164)  returns 0x00 (0000ms, 1555ms total)
T0AAC 002:196 JLINK_WriteReg(R3, 0x00000000)  returns 0x00 (0000ms, 1555ms total)
T0AAC 002:196 JLINK_WriteReg(R4, 0x00000000)  returns 0x00 (0001ms, 1556ms total)
T0AAC 002:197 JLINK_WriteReg(R5, 0x00000000)  returns 0x00 (0000ms, 1556ms total)
T0AAC 002:197 JLINK_WriteReg(R6, 0x00000000)  returns 0x00 (0000ms, 1556ms total)
T0AAC 002:197 JLINK_WriteReg(R7, 0x00000000)  returns 0x00 (0000ms, 1556ms total)
T0AAC 002:197 JLINK_WriteReg(R8, 0x00000000)  returns 0x00 (0000ms, 1556ms total)
T0AAC 002:197 JLINK_WriteReg(R9, 0x20000160)  returns 0x00 (0000ms, 1556ms total)
T0AAC 002:197 JLINK_WriteReg(R10, 0x00000000)  returns 0x00 (0000ms, 1556ms total)
T0AAC 002:197 JLINK_WriteReg(R11, 0x00000000)  returns 0x00 (0000ms, 1556ms total)
T0AAC 002:197 JLINK_WriteReg(R12, 0x00000000)  returns 0x00 (0000ms, 1556ms total)
T0AAC 002:197 JLINK_WriteReg(R13 (SP), 0x20001000)  returns 0x00 (0000ms, 1556ms total)
T0AAC 002:197 JLINK_WriteReg(R14, 0x20000001)  returns 0x00 (0000ms, 1556ms total)
T0AAC 002:197 JLINK_WriteReg(R15 (PC), 0x200000F4)  returns 0x00 (0001ms, 1557ms total)
T0AAC 002:198 JLINK_WriteReg(XPSR, 0x01000000)  returns 0x00 (0000ms, 1557ms total)
T0AAC 002:198 JLINK_WriteReg(MSP, 0x20001000)  returns 0x00 (0000ms, 1557ms total)
T0AAC 002:198 JLINK_WriteReg(PSP, 0x20001000)  returns 0x00 (0000ms, 1557ms total)
T0AAC 002:198 JLINK_WriteReg(CFBP, 0x00000000)  returns 0x00 (0000ms, 1557ms total)
T0AAC 002:198 JLINK_SetBPEx(Addr = 0x20000000, Type = 0xFFFFFFF2)  returns 0x00000006 (0000ms, 1557ms total)
T0AAC 002:198 JLINK_Go() -- CPU_ReadMem(4 bytes @ 0xE0001000) (0015ms, 1572ms total)
T0AAC 002:213 JLINK_IsHalted()  returns FALSE (0005ms, 1577ms total)
T0AAC 002:244 JLINK_IsHalted()  returns FALSE (0005ms, 1577ms total)
T0AAC 002:250 JLINK_IsHalted()  returns FALSE (0004ms, 1576ms total)
T0AAC 002:255 JLINK_IsHalted()  returns FALSE (0004ms, 1576ms total)
T0AAC 002:260 JLINK_IsHalted() -- CPU_ReadMem(2 bytes @ 0x20000000)  returns TRUE (0014ms, 1586ms total)
T0AAC 002:274 JLINK_ReadReg(R15 (PC))  returns 0x20000000 (0001ms, 1573ms total)
T0AAC 002:275 JLINK_ClrBPEx(BPHandle = 0x00000006)  returns 0x00 (0000ms, 1573ms total)
T0AAC 002:275 JLINK_ReadReg(R0)  returns 0x00000000 (0000ms, 1573ms total)
T0AAC 002:275 JLINK_WriteMem(0x20000164, 0x0400 Bytes, ...) - Data: B0 F5 20 2F 03 D0 A0 68 B0 F5 40 2F 00 D1 03 E0 ... -- CPU_WriteMem(1024 bytes @ 0x20000164)  returns 0x400 (0007ms, 1580ms total)
T0AAC 002:282 JLINK_WriteReg(R0, 0x08000800)  returns 0x00 (0000ms, 1580ms total)
T0AAC 002:282 JLINK_WriteReg(R1, 0x00000400)  returns 0x00 (0000ms, 1580ms total)
T0AAC 002:282 JLINK_WriteReg(R2, 0x20000164)  returns 0x00 (0000ms, 1580ms total)
T0AAC 002:282 JLINK_WriteReg(R3, 0x00000000)  returns 0x00 (0000ms, 1580ms total)
T0AAC 002:282 JLINK_WriteReg(R4, 0x00000000)  returns 0x00 (0000ms, 1580ms total)
T0AAC 002:282 JLINK_WriteReg(R5, 0x00000000)  returns 0x00 (0000ms, 1580ms total)
T0AAC 002:282 JLINK_WriteReg(R6, 0x00000000)  returns 0x00 (0001ms, 1581ms total)
T0AAC 002:283 JLINK_WriteReg(R7, 0x00000000)  returns 0x00 (0000ms, 1581ms total)
T0AAC 002:283 JLINK_WriteReg(R8, 0x00000000)  returns 0x00 (0000ms, 1581ms total)
T0AAC 002:283 JLINK_WriteReg(R9, 0x20000160)  returns 0x00 (0000ms, 1581ms total)
T0AAC 002:283 JLINK_WriteReg(R10, 0x00000000)  returns 0x00 (0000ms, 1581ms total)
T0AAC 002:283 JLINK_WriteReg(R11, 0x00000000)  returns 0x00 (0000ms, 1581ms total)
T0AAC 002:283 JLINK_WriteReg(R12, 0x00000000)  returns 0x00 (0000ms, 1581ms total)
T0AAC 002:283 JLINK_WriteReg(R13 (SP), 0x20001000)  returns 0x00 (0000ms, 1581ms total)
T0AAC 002:283 JLINK_WriteReg(R14, 0x20000001)  returns 0x00 (0000ms, 1581ms total)
T0AAC 002:283 JLINK_WriteReg(R15 (PC), 0x200000F4)  returns 0x00 (0000ms, 1581ms total)
T0AAC 002:283 JLINK_WriteReg(XPSR, 0x01000000)  returns 0x00 (0000ms, 1581ms total)
T0AAC 002:284 JLINK_WriteReg(MSP, 0x20001000)  returns 0x00 (0000ms, 1581ms total)
T0AAC 002:284 JLINK_WriteReg(PSP, 0x20001000)  returns 0x00 (0000ms, 1581ms total)
T0AAC 002:284 JLINK_WriteReg(CFBP, 0x00000000)  returns 0x00 (0000ms, 1581ms total)
T0AAC 002:284 JLINK_SetBPEx(Addr = 0x20000000, Type = 0xFFFFFFF2)  returns 0x00000007 (0000ms, 1581ms total)
T0AAC 002:284 JLINK_Go() -- CPU_ReadMem(4 bytes @ 0xE0001000) (0014ms, 1595ms total)
T0AAC 002:299 JLINK_IsHalted()  returns FALSE (0005ms, 1601ms total)
T0AAC 002:305 JLINK_IsHalted()  returns FALSE (0004ms, 1600ms total)
T0AAC 002:312 JLINK_IsHalted()  returns FALSE (0004ms, 1600ms total)
T0AAC 002:317 JLINK_IsHalted()  returns FALSE (0004ms, 1600ms total)
T0AAC 002:347 JLINK_IsHalted() -- CPU_ReadMem(2 bytes @ 0x20000000)  returns TRUE (0015ms, 1611ms total)
T0AAC 002:362 JLINK_ReadReg(R15 (PC))  returns 0x20000000 (0000ms, 1596ms total)
T0AAC 002:362 JLINK_ClrBPEx(BPHandle = 0x00000007)  returns 0x00 (0000ms, 1596ms total)
T0AAC 002:362 JLINK_ReadReg(R0)  returns 0x00000000 (0000ms, 1596ms total)
T0AAC 002:363 JLINK_WriteMem(0x20000164, 0x0400 Bytes, ...) - Data: 31 30 78 5F 53 74 64 50 65 72 69 70 68 5F 44 72 ... -- CPU_WriteMem(1024 bytes @ 0x20000164)  returns 0x400 (0007ms, 1603ms total)
T0AAC 002:370 JLINK_WriteReg(R0, 0x08000C00)  returns 0x00 (0000ms, 1603ms total)
T0AAC 002:370 JLINK_WriteReg(R1, 0x00000400)  returns 0x00 (0000ms, 1603ms total)
T0AAC 002:370 JLINK_WriteReg(R2, 0x20000164)  returns 0x00 (0000ms, 1603ms total)
T0AAC 002:370 JLINK_WriteReg(R3, 0x00000000)  returns 0x00 (0000ms, 1603ms total)
T0AAC 002:370 JLINK_WriteReg(R4, 0x00000000)  returns 0x00 (0000ms, 1603ms total)
T0AAC 002:370 JLINK_WriteReg(R5, 0x00000000)  returns 0x00 (0000ms, 1603ms total)
T0AAC 002:370 JLINK_WriteReg(R6, 0x00000000)  returns 0x00 (0000ms, 1603ms total)
T0AAC 002:370 JLINK_WriteReg(R7, 0x00000000)  returns 0x00 (0000ms, 1603ms total)
T0AAC 002:370 JLINK_WriteReg(R8, 0x00000000)  returns 0x00 (0000ms, 1603ms total)
T0AAC 002:370 JLINK_WriteReg(R9, 0x20000160)  returns 0x00 (0000ms, 1603ms total)
T0AAC 002:370 JLINK_WriteReg(R10, 0x00000000)  returns 0x00 (0001ms, 1604ms total)
T0AAC 002:371 JLINK_WriteReg(R11, 0x00000000)  returns 0x00 (0000ms, 1604ms total)
T0AAC 002:371 JLINK_WriteReg(R12, 0x00000000)  returns 0x00 (0000ms, 1604ms total)
T0AAC 002:371 JLINK_WriteReg(R13 (SP), 0x20001000)  returns 0x00 (0000ms, 1604ms total)
T0AAC 002:371 JLINK_WriteReg(R14, 0x20000001)  returns 0x00 (0000ms, 1604ms total)
T0AAC 002:371 JLINK_WriteReg(R15 (PC), 0x200000F4)  returns 0x00 (0000ms, 1604ms total)
T0AAC 002:371 JLINK_WriteReg(XPSR, 0x01000000)  returns 0x00 (0000ms, 1604ms total)
T0AAC 002:371 JLINK_WriteReg(MSP, 0x20001000)  returns 0x00 (0000ms, 1604ms total)
T0AAC 002:371 JLINK_WriteReg(PSP, 0x20001000)  returns 0x00 (0000ms, 1604ms total)
T0AAC 002:371 JLINK_WriteReg(CFBP, 0x00000000)  returns 0x00 (0000ms, 1604ms total)
T0AAC 002:371 JLINK_SetBPEx(Addr = 0x20000000, Type = 0xFFFFFFF2)  returns 0x00000008 (0000ms, 1604ms total)
T0AAC 002:371 JLINK_Go() -- CPU_ReadMem(4 bytes @ 0xE0001000) (0015ms, 1619ms total)
T0AAC 002:386 JLINK_IsHalted()  returns FALSE (0005ms, 1624ms total)
T0AAC 002:394 JLINK_IsHalted()  returns FALSE (0005ms, 1624ms total)
T0AAC 002:402 JLINK_IsHalted()  returns FALSE (0005ms, 1624ms total)
T0AAC 002:408 JLINK_IsHalted()  returns FALSE (0004ms, 1623ms total)
T0AAC 002:413 JLINK_IsHalted()  returns FALSE (0005ms, 1624ms total)
T0AAC 002:421 JLINK_IsHalted()  returns FALSE (0004ms, 1623ms total)
T0AAC 002:426 JLINK_IsHalted()  returns FALSE (0004ms, 1623ms total)
T0AAC 002:454 JLINK_IsHalted() -- CPU_ReadMem(2 bytes @ 0x20000000)  returns TRUE (0015ms, 1634ms total)
T0AAC 002:469 JLINK_ReadReg(R15 (PC))  returns 0x20000000 (0000ms, 1619ms total)
T0AAC 002:469 JLINK_ClrBPEx(BPHandle = 0x00000008)  returns 0x00 (0000ms, 1619ms total)
T0AAC 002:469 JLINK_ReadReg(R0)  returns 0x00000000 (0000ms, 1619ms total)
T0AAC 002:470 JLINK_WriteMem(0x20000164, 0x0400 Bytes, ...) - Data: 01 D0 20 6A 00 B9 03 E0 D6 21 20 A0 03 F0 C8 FB ... -- CPU_WriteMem(1024 bytes @ 0x20000164)  returns 0x400 (0006ms, 1625ms total)
T0AAC 002:476 JLINK_WriteReg(R0, 0x08001000)  returns 0x00 (0000ms, 1625ms total)
T0AAC 002:476 JLINK_WriteReg(R1, 0x00000400)  returns 0x00 (0005ms, 1630ms total)
T0AAC 002:481 JLINK_WriteReg(R2, 0x20000164)  returns 0x00 (0001ms, 1631ms total)
T0AAC 002:482 JLINK_WriteReg(R3, 0x00000000)  returns 0x00 (0000ms, 1631ms total)
T0AAC 002:482 JLINK_WriteReg(R4, 0x00000000)  returns 0x00 (0000ms, 1631ms total)
T0AAC 002:482 JLINK_WriteReg(R5, 0x00000000)  returns 0x00 (0000ms, 1631ms total)
T0AAC 002:482 JLINK_WriteReg(R6, 0x00000000)  returns 0x00 (0000ms, 1631ms total)
T0AAC 002:482 JLINK_WriteReg(R7, 0x00000000)  returns 0x00 (0000ms, 1631ms total)
T0AAC 002:482 JLINK_WriteReg(R8, 0x00000000)  returns 0x00 (0000ms, 1631ms total)
T0AAC 002:482 JLINK_WriteReg(R9, 0x20000160)  returns 0x00 (0000ms, 1631ms total)
T0AAC 002:482 JLINK_WriteReg(R10, 0x00000000)  returns 0x00 (0000ms, 1631ms total)
T0AAC 002:482 JLINK_WriteReg(R11, 0x00000000)  returns 0x00 (0000ms, 1631ms total)
T0AAC 002:482 JLINK_WriteReg(R12, 0x00000000)  returns 0x00 (0000ms, 1631ms total)
T0AAC 002:482 JLINK_WriteReg(R13 (SP), 0x20001000)  returns 0x00 (0000ms, 1631ms total)
T0AAC 002:482 JLINK_WriteReg(R14, 0x20000001)  returns 0x00 (0001ms, 1632ms total)
T0AAC 002:483 JLINK_WriteReg(R15 (PC), 0x200000F4)  returns 0x00 (0000ms, 1632ms total)
T0AAC 002:483 JLINK_WriteReg(XPSR, 0x01000000)  returns 0x00 (0000ms, 1632ms total)
T0AAC 002:483 JLINK_WriteReg(MSP, 0x20001000)  returns 0x00 (0000ms, 1632ms total)
T0AAC 002:483 JLINK_WriteReg(PSP, 0x20001000)  returns 0x00 (0000ms, 1632ms total)
T0AAC 002:483 JLINK_WriteReg(CFBP, 0x00000000)  returns 0x00 (0000ms, 1632ms total)
T0AAC 002:483 JLINK_SetBPEx(Addr = 0x20000000, Type = 0xFFFFFFF2)  returns 0x00000009 (0000ms, 1632ms total)
T0AAC 002:483 JLINK_Go() -- CPU_ReadMem(4 bytes @ 0xE0001000) (0015ms, 1647ms total)
T0AAC 002:498 JLINK_IsHalted()  returns FALSE (0005ms, 1652ms total)
T0AAC 002:506 JLINK_IsHalted()  returns FALSE (0005ms, 1652ms total)
T0AAC 002:512 JLINK_IsHalted()  returns FALSE (0005ms, 1652ms total)
T0AAC 002:518 JLINK_IsHalted()  returns FALSE (0004ms, 1651ms total)
T0AAC 002:525 JLINK_IsHalted()  returns FALSE (0005ms, 1652ms total)
T0AAC 002:531 JLINK_IsHalted()  returns FALSE (0005ms, 1652ms total)
T0AAC 002:537 JLINK_IsHalted()  returns FALSE (0005ms, 1652ms total)
T0AAC 002:565 JLINK_IsHalted() -- CPU_ReadMem(2 bytes @ 0x20000000)  returns TRUE (0014ms, 1661ms total)
T0AAC 002:579 JLINK_ReadReg(R15 (PC))  returns 0x20000000 (0001ms, 1648ms total)
T0AAC 002:580 JLINK_ClrBPEx(BPHandle = 0x00000009)  returns 0x00 (0000ms, 1648ms total)
T0AAC 002:580 JLINK_ReadReg(R0)  returns 0x00000000 (0000ms, 1648ms total)
T0AAC 002:580 JLINK_WriteMem(0x20000164, 0x0400 Bytes, ...) - Data: 28 68 21 68 08 43 28 60 05 E0 20 79 05 44 28 68 ... -- CPU_WriteMem(1024 bytes @ 0x20000164)  returns 0x400 (0007ms, 1655ms total)
T0AAC 002:587 JLINK_WriteReg(R0, 0x08001400)  returns 0x00 (0000ms, 1655ms total)
T0AAC 002:587 JLINK_WriteReg(R1, 0x00000400)  returns 0x00 (0000ms, 1655ms total)
T0AAC 002:587 JLINK_WriteReg(R2, 0x20000164)  returns 0x00 (0000ms, 1655ms total)
T0AAC 002:587 JLINK_WriteReg(R3, 0x00000000)  returns 0x00 (0001ms, 1656ms total)
T0AAC 002:588 JLINK_WriteReg(R4, 0x00000000)  returns 0x00 (0000ms, 1656ms total)
T0AAC 002:588 JLINK_WriteReg(R5, 0x00000000)  returns 0x00 (0000ms, 1656ms total)
T0AAC 002:588 JLINK_WriteReg(R6, 0x00000000)  returns 0x00 (0000ms, 1656ms total)
T0AAC 002:588 JLINK_WriteReg(R7, 0x00000000)  returns 0x00 (0000ms, 1656ms total)
T0AAC 002:588 JLINK_WriteReg(R8, 0x00000000)  returns 0x00 (0000ms, 1656ms total)
T0AAC 002:588 JLINK_WriteReg(R9, 0x20000160)  returns 0x00 (0000ms, 1656ms total)
T0AAC 002:588 JLINK_WriteReg(R10, 0x00000000)  returns 0x00 (0000ms, 1656ms total)
T0AAC 002:588 JLINK_WriteReg(R11, 0x00000000)  returns 0x00 (0000ms, 1656ms total)
T0AAC 002:588 JLINK_WriteReg(R12, 0x00000000)  returns 0x00 (0000ms, 1656ms total)
T0AAC 002:588 JLINK_WriteReg(R13 (SP), 0x20001000)  returns 0x00 (0000ms, 1656ms total)
T0AAC 002:588 JLINK_WriteReg(R14, 0x20000001)  returns 0x00 (0001ms, 1657ms total)
T0AAC 002:589 JLINK_WriteReg(R15 (PC), 0x200000F4)  returns 0x00 (0000ms, 1657ms total)
T0AAC 002:589 JLINK_WriteReg(XPSR, 0x01000000)  returns 0x00 (0000ms, 1657ms total)
T0AAC 002:589 JLINK_WriteReg(MSP, 0x20001000)  returns 0x00 (0000ms, 1657ms total)
T0AAC 002:589 JLINK_WriteReg(PSP, 0x20001000)  returns 0x00 (0000ms, 1657ms total)
T0AAC 002:589 JLINK_WriteReg(CFBP, 0x00000000)  returns 0x00 (0000ms, 1657ms total)
T0AAC 002:589 JLINK_SetBPEx(Addr = 0x20000000, Type = 0xFFFFFFF2)  returns 0x0000000A (0000ms, 1657ms total)
T0AAC 002:589 JLINK_Go() -- CPU_ReadMem(4 bytes @ 0xE0001000) (0015ms, 1672ms total)
T0AAC 002:604 JLINK_IsHalted()  returns FALSE (0005ms, 1677ms total)
T0AAC 002:612 JLINK_IsHalted()  returns FALSE (0005ms, 1677ms total)
T0AAC 002:627 JLINK_IsHalted()  returns FALSE (0005ms, 1677ms total)
T0AAC 002:635 JLINK_IsHalted()  returns FALSE (0005ms, 1677ms total)
T0AAC 002:641 JLINK_IsHalted()  returns FALSE (0004ms, 1676ms total)
T0AAC 002:646 JLINK_IsHalted()  returns FALSE (0005ms, 1677ms total)
T0AAC 002:679 JLINK_IsHalted() -- CPU_ReadMem(2 bytes @ 0x20000000)  returns TRUE (0014ms, 1686ms total)
T0AAC 002:693 JLINK_ReadReg(R15 (PC))  returns 0x20000000 (0000ms, 1672ms total)
T0AAC 002:693 JLINK_ClrBPEx(BPHandle = 0x0000000A)  returns 0x00 (0001ms, 1673ms total)
T0AAC 002:694 JLINK_ReadReg(R0)  returns 0x00000000 (0000ms, 1673ms total)
T0AAC 002:694 JLINK_WriteMem(0x20000164, 0x0400 Bytes, ...) - Data: 84 42 50 D0 00 1D 84 42 4D D0 56 48 0F 30 84 42 ... -- CPU_WriteMem(1024 bytes @ 0x20000164)  returns 0x400 (0007ms, 1680ms total)
T0AAC 002:701 JLINK_WriteReg(R0, 0x08001800)  returns 0x00 (0000ms, 1680ms total)
T0AAC 002:701 JLINK_WriteReg(R1, 0x00000400)  returns 0x00 (0000ms, 1680ms total)
T0AAC 002:701 JLINK_WriteReg(R2, 0x20000164)  returns 0x00 (0000ms, 1680ms total)
T0AAC 002:701 JLINK_WriteReg(R3, 0x00000000)  returns 0x00 (0000ms, 1680ms total)
T0AAC 002:701 JLINK_WriteReg(R4, 0x00000000)  returns 0x00 (0001ms, 1681ms total)
T0AAC 002:702 JLINK_WriteReg(R5, 0x00000000)  returns 0x00 (0000ms, 1681ms total)
T0AAC 002:702 JLINK_WriteReg(R6, 0x00000000)  returns 0x00 (0000ms, 1681ms total)
T0AAC 002:702 JLINK_WriteReg(R7, 0x00000000)  returns 0x00 (0000ms, 1681ms total)
T0AAC 002:702 JLINK_WriteReg(R8, 0x00000000)  returns 0x00 (0000ms, 1681ms total)
T0AAC 002:702 JLINK_WriteReg(R9, 0x20000160)  returns 0x00 (0000ms, 1681ms total)
T0AAC 002:702 JLINK_WriteReg(R10, 0x00000000)  returns 0x00 (0000ms, 1681ms total)
T0AAC 002:702 JLINK_WriteReg(R11, 0x00000000)  returns 0x00 (0000ms, 1681ms total)
T0AAC 002:702 JLINK_WriteReg(R12, 0x00000000)  returns 0x00 (0000ms, 1681ms total)
T0AAC 002:702 JLINK_WriteReg(R13 (SP), 0x20001000)  returns 0x00 (0000ms, 1681ms total)
T0AAC 002:702 JLINK_WriteReg(R14, 0x20000001)  returns 0x00 (0000ms, 1681ms total)
T0AAC 002:702 JLINK_WriteReg(R15 (PC), 0x200000F4)  returns 0x00 (0000ms, 1681ms total)
T0AAC 002:702 JLINK_WriteReg(XPSR, 0x01000000)  returns 0x00 (0001ms, 1682ms total)
T0AAC 002:703 JLINK_WriteReg(MSP, 0x20001000)  returns 0x00 (0000ms, 1682ms total)
T0AAC 002:703 JLINK_WriteReg(PSP, 0x20001000)  returns 0x00 (0000ms, 1682ms total)
T0AAC 002:703 JLINK_WriteReg(CFBP, 0x00000000)  returns 0x00 (0000ms, 1682ms total)
T0AAC 002:703 JLINK_SetBPEx(Addr = 0x20000000, Type = 0xFFFFFFF2)  returns 0x0000000B (0000ms, 1682ms total)
T0AAC 002:703 JLINK_Go() -- CPU_ReadMem(4 bytes @ 0xE0001000) (0015ms, 1697ms total)
T0AAC 002:718 JLINK_IsHalted()  returns FALSE (0005ms, 1702ms total)
T0AAC 002:726 JLINK_IsHalted()  returns FALSE (0005ms, 1702ms total)
T0AAC 002:734 JLINK_IsHalted()  returns FALSE (0004ms, 1701ms total)
T0AAC 002:739 JLINK_IsHalted()  returns FALSE (0004ms, 1701ms total)
T0AAC 002:746 JLINK_IsHalted()  returns FALSE (0005ms, 1702ms total)
T0AAC 002:752 JLINK_IsHalted()  returns FALSE (0004ms, 1701ms total)
T0AAC 002:757 JLINK_IsHalted()  returns FALSE (0004ms, 1701ms total)
T0AAC 002:784 JLINK_IsHalted() -- CPU_ReadMem(2 bytes @ 0x20000000)  returns TRUE (0014ms, 1711ms total)
T0AAC 002:798 JLINK_ReadReg(R15 (PC))  returns 0x20000000 (0000ms, 1697ms total)
T0AAC 002:798 JLINK_ClrBPEx(BPHandle = 0x0000000B)  returns 0x00 (0001ms, 1698ms total)
T0AAC 002:799 JLINK_ReadReg(R0)  returns 0x00000000 (0000ms, 1698ms total)
T0AAC 002:800 JLINK_WriteMem(0x20000164, 0x0400 Bytes, ...) - Data: 69 76 65 72 5C 73 72 63 5C 73 74 6D 33 32 66 31 ... -- CPU_WriteMem(1024 bytes @ 0x20000164)  returns 0x400 (0006ms, 1704ms total)
T0AAC 002:806 JLINK_WriteReg(R0, 0x08001C00)  returns 0x00 (0000ms, 1704ms total)
T0AAC 002:806 JLINK_WriteReg(R1, 0x00000400)  returns 0x00 (0000ms, 1704ms total)
T0AAC 002:806 JLINK_WriteReg(R2, 0x20000164)  returns 0x00 (0001ms, 1705ms total)
T0AAC 002:807 JLINK_WriteReg(R3, 0x00000000)  returns 0x00 (0000ms, 1705ms total)
T0AAC 002:807 JLINK_WriteReg(R4, 0x00000000)  returns 0x00 (0000ms, 1705ms total)
T0AAC 002:807 JLINK_WriteReg(R5, 0x00000000)  returns 0x00 (0000ms, 1705ms total)
T0AAC 002:807 JLINK_WriteReg(R6, 0x00000000)  returns 0x00 (0000ms, 1705ms total)
T0AAC 002:807 JLINK_WriteReg(R7, 0x00000000)  returns 0x00 (0000ms, 1705ms total)
T0AAC 002:807 JLINK_WriteReg(R8, 0x00000000)  returns 0x00 (0000ms, 1705ms total)
T0AAC 002:807 JLINK_WriteReg(R9, 0x20000160)  returns 0x00 (0000ms, 1705ms total)
T0AAC 002:807 JLINK_WriteReg(R10, 0x00000000)  returns 0x00 (0000ms, 1705ms total)
T0AAC 002:807 JLINK_WriteReg(R11, 0x00000000)  returns 0x00 (0000ms, 1705ms total)
T0AAC 002:807 JLINK_WriteReg(R12, 0x00000000)  returns 0x00 (0000ms, 1705ms total)
T0AAC 002:807 JLINK_WriteReg(R13 (SP), 0x20001000)  returns 0x00 (0000ms, 1705ms total)
T0AAC 002:808 JLINK_WriteReg(R14, 0x20000001)  returns 0x00 (0000ms, 1706ms total)
T0AAC 002:808 JLINK_WriteReg(R15 (PC), 0x200000F4)  returns 0x00 (0000ms, 1706ms total)
T0AAC 002:808 JLINK_WriteReg(XPSR, 0x01000000)  returns 0x00 (0000ms, 1706ms total)
T0AAC 002:808 JLINK_WriteReg(MSP, 0x20001000)  returns 0x00 (0000ms, 1706ms total)
T0AAC 002:808 JLINK_WriteReg(PSP, 0x20001000)  returns 0x00 (0000ms, 1706ms total)
T0AAC 002:808 JLINK_WriteReg(CFBP, 0x00000000)  returns 0x00 (0000ms, 1706ms total)
T0AAC 002:808 JLINK_SetBPEx(Addr = 0x20000000, Type = 0xFFFFFFF2)  returns 0x0000000C (0000ms, 1706ms total)
T0AAC 002:808 JLINK_Go() -- CPU_ReadMem(4 bytes @ 0xE0001000) (0015ms, 1721ms total)
T0AAC 002:823 JLINK_IsHalted()  returns FALSE (0005ms, 1726ms total)
T0AAC 002:829 JLINK_IsHalted()  returns FALSE (0004ms, 1725ms total)
T0AAC 002:834 JLINK_IsHalted()  returns FALSE (0004ms, 1725ms total)
T0AAC 002:841 JLINK_IsHalted()  returns FALSE (0005ms, 1726ms total)
T0AAC 002:854 JLINK_IsHalted()  returns FALSE (0004ms, 1725ms total)
T0AAC 002:860 JLINK_IsHalted()  returns FALSE (0004ms, 1725ms total)
T0AAC 002:865 JLINK_IsHalted()  returns FALSE (0004ms, 1725ms total)
T0AAC 002:896 JLINK_IsHalted() -- CPU_ReadMem(2 bytes @ 0x20000000)  returns TRUE (0014ms, 1735ms total)
T0AAC 002:910 JLINK_ReadReg(R15 (PC))  returns 0x20000000 (0000ms, 1721ms total)
T0AAC 002:910 JLINK_ClrBPEx(BPHandle = 0x0000000C)  returns 0x00 (0000ms, 1721ms total)
T0AAC 002:911 JLINK_ReadReg(R0)  returns 0x00000000 (0000ms, 1722ms total)
T0AAC 002:911 JLINK_WriteMem(0x20000164, 0x0400 Bytes, ...) - Data: 65 72 69 70 68 5F 44 72 69 76 65 72 5C 73 72 63 ... -- CPU_WriteMem(1024 bytes @ 0x20000164)  returns 0x400 (0007ms, 1729ms total)
T0AAC 002:918 JLINK_WriteReg(R0, 0x08002000)  returns 0x00 (0000ms, 1729ms total)
T0AAC 002:918 JLINK_WriteReg(R1, 0x00000400)  returns 0x00 (0000ms, 1729ms total)
T0AAC 002:918 JLINK_WriteReg(R2, 0x20000164)  returns 0x00 (0000ms, 1729ms total)
T0AAC 002:918 JLINK_WriteReg(R3, 0x00000000)  returns 0x00 (0000ms, 1729ms total)
T0AAC 002:918 JLINK_WriteReg(R4, 0x00000000)  returns 0x00 (0000ms, 1729ms total)
T0AAC 002:918 JLINK_WriteReg(R5, 0x00000000)  returns 0x00 (0000ms, 1729ms total)
T0AAC 002:918 JLINK_WriteReg(R6, 0x00000000)  returns 0x00 (0000ms, 1729ms total)
T0AAC 002:918 JLINK_WriteReg(R7, 0x00000000)  returns 0x00 (0000ms, 1729ms total)
T0AAC 002:918 JLINK_WriteReg(R8, 0x00000000)  returns 0x00 (0000ms, 1729ms total)
T0AAC 002:918 JLINK_WriteReg(R9, 0x20000160)  returns 0x00 (0000ms, 1729ms total)
T0AAC 002:918 JLINK_WriteReg(R10, 0x00000000)  returns 0x00 (0001ms, 1730ms total)
T0AAC 002:919 JLINK_WriteReg(R11, 0x00000000)  returns 0x00 (0000ms, 1730ms total)
T0AAC 002:919 JLINK_WriteReg(R12, 0x00000000)  returns 0x00 (0000ms, 1730ms total)
T0AAC 002:919 JLINK_WriteReg(R13 (SP), 0x20001000)  returns 0x00 (0000ms, 1730ms total)
T0AAC 002:919 JLINK_WriteReg(R14, 0x20000001)  returns 0x00 (0000ms, 1730ms total)
T0AAC 002:919 JLINK_WriteReg(R15 (PC), 0x200000F4)  returns 0x00 (0000ms, 1730ms total)
T0AAC 002:919 JLINK_WriteReg(XPSR, 0x01000000)  returns 0x00 (0000ms, 1730ms total)
T0AAC 002:919 JLINK_WriteReg(MSP, 0x20001000)  returns 0x00 (0000ms, 1730ms total)
T0AAC 002:919 JLINK_WriteReg(PSP, 0x20001000)  returns 0x00 (0000ms, 1730ms total)
T0AAC 002:919 JLINK_WriteReg(CFBP, 0x00000000)  returns 0x00 (0000ms, 1730ms total)
T0AAC 002:919 JLINK_SetBPEx(Addr = 0x20000000, Type = 0xFFFFFFF2)  returns 0x0000000D (0001ms, 1731ms total)
T0AAC 002:920 JLINK_Go() -- CPU_ReadMem(4 bytes @ 0xE0001000) (0014ms, 1745ms total)
T0AAC 002:935 JLINK_IsHalted()  returns FALSE (0005ms, 1751ms total)
T0AAC 002:941 JLINK_IsHalted()  returns FALSE (0005ms, 1751ms total)
T0AAC 002:949 JLINK_IsHalted()  returns FALSE (0005ms, 1751ms total)
T0AAC 002:955 JLINK_IsHalted()  returns FALSE (0004ms, 1750ms total)
T0AAC 002:961 JLINK_IsHalted()  returns FALSE (0004ms, 1750ms total)
T0AAC 002:969 JLINK_IsHalted()  returns FALSE (0005ms, 1751ms total)
T0AAC 002:975 JLINK_IsHalted()  returns FALSE (0004ms, 1750ms total)
T0AAC 003:005 JLINK_IsHalted() -- CPU_ReadMem(2 bytes @ 0x20000000)  returns TRUE (0015ms, 1761ms total)
T0AAC 003:020 JLINK_ReadReg(R15 (PC))  returns 0x20000000 (0000ms, 1761ms total)
T0AAC 003:020 JLINK_ClrBPEx(BPHandle = 0x0000000D)  returns 0x00 (0000ms, 1761ms total)
T0AAC 003:020 JLINK_ReadReg(R0)  returns 0x00000000 (0000ms, 1761ms total)
T0AAC 003:021 JLINK_WriteMem(0x20000164, 0x0400 Bytes, ...) - Data: F1 FE 07 F0 6B FE 02 48 00 68 08 F0 D5 FB 70 BD ... -- CPU_WriteMem(1024 bytes @ 0x20000164)  returns 0x400 (0007ms, 1768ms total)
T0AAC 003:028 JLINK_WriteReg(R0, 0x08002400)  returns 0x00 (0000ms, 1768ms total)
T0AAC 003:028 JLINK_WriteReg(R1, 0x00000400)  returns 0x00 (0000ms, 1768ms total)
T0AAC 003:028 JLINK_WriteReg(R2, 0x20000164)  returns 0x00 (0000ms, 1768ms total)
T0AAC 003:028 JLINK_WriteReg(R3, 0x00000000)  returns 0x00 (0000ms, 1768ms total)
T0AAC 003:028 JLINK_WriteReg(R4, 0x00000000)  returns 0x00 (0000ms, 1768ms total)
T0AAC 003:028 JLINK_WriteReg(R5, 0x00000000)  returns 0x00 (0000ms, 1768ms total)
T0AAC 003:028 JLINK_WriteReg(R6, 0x00000000)  returns 0x00 (0000ms, 1768ms total)
T0AAC 003:028 JLINK_WriteReg(R7, 0x00000000)  returns 0x00 (0000ms, 1768ms total)
T0AAC 003:028 JLINK_WriteReg(R8, 0x00000000)  returns 0x00 (0000ms, 1768ms total)
T0AAC 003:028 JLINK_WriteReg(R9, 0x20000160)  returns 0x00 (0000ms, 1768ms total)
T0AAC 003:028 JLINK_WriteReg(R10, 0x00000000)  returns 0x00 (0000ms, 1768ms total)
T0AAC 003:028 JLINK_WriteReg(R11, 0x00000000)  returns 0x00 (0001ms, 1769ms total)
T0AAC 003:029 JLINK_WriteReg(R12, 0x00000000)  returns 0x00 (0000ms, 1769ms total)
T0AAC 003:029 JLINK_WriteReg(R13 (SP), 0x20001000)  returns 0x00 (0000ms, 1769ms total)
T0AAC 003:029 JLINK_WriteReg(R14, 0x20000001)  returns 0x00 (0000ms, 1769ms total)
T0AAC 003:029 JLINK_WriteReg(R15 (PC), 0x200000F4)  returns 0x00 (0000ms, 1769ms total)
T0AAC 003:029 JLINK_WriteReg(XPSR, 0x01000000)  returns 0x00 (0000ms, 1769ms total)
T0AAC 003:029 JLINK_WriteReg(MSP, 0x20001000)  returns 0x00 (0000ms, 1769ms total)
T0AAC 003:029 JLINK_WriteReg(PSP, 0x20001000)  returns 0x00 (0000ms, 1769ms total)
T0AAC 003:029 JLINK_WriteReg(CFBP, 0x00000000)  returns 0x00 (0000ms, 1769ms total)
T0AAC 003:029 JLINK_SetBPEx(Addr = 0x20000000, Type = 0xFFFFFFF2)  returns 0x0000000E (0000ms, 1769ms total)
T0AAC 003:029 JLINK_Go() -- CPU_ReadMem(4 bytes @ 0xE0001000) (0015ms, 1784ms total)
T0AAC 003:044 JLINK_IsHalted()  returns FALSE (0005ms, 1789ms total)
T0AAC 003:051 JLINK_IsHalted()  returns FALSE (0005ms, 1789ms total)
T0AAC 003:059 JLINK_IsHalted()  returns FALSE (0005ms, 1789ms total)
T0AAC 003:065 JLINK_IsHalted()  returns FALSE (0004ms, 1788ms total)
T0AAC 003:072 JLINK_IsHalted()  returns FALSE (0004ms, 1788ms total)
T0AAC 003:078 JLINK_IsHalted()  returns FALSE (0004ms, 1788ms total)
T0AAC 003:084 JLINK_IsHalted()  returns FALSE (0004ms, 1788ms total)
T0AAC 003:112 JLINK_IsHalted() -- CPU_ReadMem(2 bytes @ 0x20000000)  returns TRUE (0014ms, 1798ms total)
T0AAC 003:126 JLINK_ReadReg(R15 (PC))  returns 0x20000000 (0000ms, 1784ms total)
T0AAC 003:126 JLINK_ClrBPEx(BPHandle = 0x0000000E)  returns 0x00 (0000ms, 1784ms total)
T0AAC 003:127 JLINK_ReadReg(R0)  returns 0x00000000 (0000ms, 1785ms total)
T0AAC 003:127 JLINK_WriteMem(0x20000164, 0x0400 Bytes, ...) - Data: 0E C9 A0 47 10 90 6E E0 DD E9 1E 13 DD E9 20 02 ... -- CPU_WriteMem(1024 bytes @ 0x20000164)  returns 0x400 (0007ms, 1792ms total)
T0AAC 003:134 JLINK_WriteReg(R0, 0x08002800)  returns 0x00 (0000ms, 1792ms total)
T0AAC 003:134 JLINK_WriteReg(R1, 0x00000400)  returns 0x00 (0000ms, 1792ms total)
T0AAC 003:134 JLINK_WriteReg(R2, 0x20000164)  returns 0x00 (0000ms, 1792ms total)
T0AAC 003:134 JLINK_WriteReg(R3, 0x00000000)  returns 0x00 (0000ms, 1792ms total)
T0AAC 003:134 JLINK_WriteReg(R4, 0x00000000)  returns 0x00 (0000ms, 1792ms total)
T0AAC 003:134 JLINK_WriteReg(R5, 0x00000000)  returns 0x00 (0001ms, 1793ms total)
T0AAC 003:135 JLINK_WriteReg(R6, 0x00000000)  returns 0x00 (0000ms, 1793ms total)
T0AAC 003:135 JLINK_WriteReg(R7, 0x00000000)  returns 0x00 (0000ms, 1793ms total)
T0AAC 003:135 JLINK_WriteReg(R8, 0x00000000)  returns 0x00 (0000ms, 1793ms total)
T0AAC 003:135 JLINK_WriteReg(R9, 0x20000160)  returns 0x00 (0000ms, 1793ms total)
T0AAC 003:135 JLINK_WriteReg(R10, 0x00000000)  returns 0x00 (0000ms, 1793ms total)
T0AAC 003:135 JLINK_WriteReg(R11, 0x00000000)  returns 0x00 (0000ms, 1793ms total)
T0AAC 003:135 JLINK_WriteReg(R12, 0x00000000)  returns 0x00 (0000ms, 1793ms total)
T0AAC 003:135 JLINK_WriteReg(R13 (SP), 0x20001000)  returns 0x00 (0000ms, 1793ms total)
T0AAC 003:135 JLINK_WriteReg(R14, 0x20000001)  returns 0x00 (0000ms, 1793ms total)
T0AAC 003:135 JLINK_WriteReg(R15 (PC), 0x200000F4)  returns 0x00 (0000ms, 1793ms total)
T0AAC 003:135 JLINK_WriteReg(XPSR, 0x01000000)  returns 0x00 (0001ms, 1794ms total)
T0AAC 003:136 JLINK_WriteReg(MSP, 0x20001000)  returns 0x00 (0000ms, 1794ms total)
T0AAC 003:136 JLINK_WriteReg(PSP, 0x20001000)  returns 0x00 (0000ms, 1794ms total)
T0AAC 003:136 JLINK_WriteReg(CFBP, 0x00000000)  returns 0x00 (0000ms, 1794ms total)
T0AAC 003:136 JLINK_SetBPEx(Addr = 0x20000000, Type = 0xFFFFFFF2)  returns 0x0000000F (0000ms, 1794ms total)
T0AAC 003:136 JLINK_Go() -- CPU_ReadMem(4 bytes @ 0xE0001000) (0015ms, 1809ms total)
T0AAC 003:151 JLINK_IsHalted()  returns FALSE (0005ms, 1814ms total)
T0AAC 003:157 JLINK_IsHalted()  returns FALSE (0004ms, 1813ms total)
T0AAC 003:162 JLINK_IsHalted()  returns FALSE (0004ms, 1813ms total)
T0AAC 003:175 JLINK_IsHalted()  returns FALSE (0004ms, 1813ms total)
T0AAC 003:183 JLINK_IsHalted()  returns FALSE (0005ms, 1814ms total)
T0AAC 003:189 JLINK_IsHalted()  returns FALSE (0004ms, 1813ms total)
T0AAC 003:219 JLINK_IsHalted() -- CPU_ReadMem(2 bytes @ 0x20000000)  returns TRUE (0014ms, 1823ms total)
T0AAC 003:233 JLINK_ReadReg(R15 (PC))  returns 0x20000000 (0000ms, 1809ms total)
T0AAC 003:233 JLINK_ClrBPEx(BPHandle = 0x0000000F)  returns 0x00 (0000ms, 1809ms total)
T0AAC 003:233 JLINK_ReadReg(R0)  returns 0x00000000 (0001ms, 1810ms total)
T0AAC 003:234 JLINK_WriteMem(0x20000164, 0x0400 Bytes, ...) - Data: 00 68 00 1F 01 49 08 60 00 BF 70 47 50 1D 00 20 ... -- CPU_WriteMem(1024 bytes @ 0x20000164)  returns 0x400 (0007ms, 1817ms total)
T0AAC 003:241 JLINK_WriteReg(R0, 0x08002C00)  returns 0x00 (0000ms, 1817ms total)
T0AAC 003:241 JLINK_WriteReg(R1, 0x00000400)  returns 0x00 (0001ms, 1818ms total)
T0AAC 003:242 JLINK_WriteReg(R2, 0x20000164)  returns 0x00 (0000ms, 1818ms total)
T0AAC 003:242 JLINK_WriteReg(R3, 0x00000000)  returns 0x00 (0000ms, 1818ms total)
T0AAC 003:242 JLINK_WriteReg(R4, 0x00000000)  returns 0x00 (0000ms, 1818ms total)
T0AAC 003:242 JLINK_WriteReg(R5, 0x00000000)  returns 0x00 (0000ms, 1818ms total)
T0AAC 003:242 JLINK_WriteReg(R6, 0x00000000)  returns 0x00 (0000ms, 1818ms total)
T0AAC 003:242 JLINK_WriteReg(R7, 0x00000000)  returns 0x00 (0000ms, 1818ms total)
T0AAC 003:242 JLINK_WriteReg(R8, 0x00000000)  returns 0x00 (0000ms, 1818ms total)
T0AAC 003:242 JLINK_WriteReg(R9, 0x20000160)  returns 0x00 (0000ms, 1818ms total)
T0AAC 003:242 JLINK_WriteReg(R10, 0x00000000)  returns 0x00 (0000ms, 1818ms total)
T0AAC 003:242 JLINK_WriteReg(R11, 0x00000000)  returns 0x00 (0000ms, 1818ms total)
T0AAC 003:242 JLINK_WriteReg(R12, 0x00000000)  returns 0x00 (0001ms, 1819ms total)
T0AAC 003:243 JLINK_WriteReg(R13 (SP), 0x20001000)  returns 0x00 (0000ms, 1819ms total)
T0AAC 003:243 JLINK_WriteReg(R14, 0x20000001)  returns 0x00 (0000ms, 1819ms total)
T0AAC 003:243 JLINK_WriteReg(R15 (PC), 0x200000F4)  returns 0x00 (0000ms, 1819ms total)
T0AAC 003:243 JLINK_WriteReg(XPSR, 0x01000000)  returns 0x00 (0000ms, 1819ms total)
